#Frequency (Hz), S21re (), S21im (), S21dB (dB), S21Ph (rad), Power (dBm), Temperature (K), Power (K)
8.0840000000e+09, 4.6589790000e-02, 2.1400990000e-02, -2.5802736947e+01, 4.3060159529e-01, 0.0000000000e+00, 1.4539000000e-02, 0.0000000000e+00
8.0840500000e+09, 4.6643270000e-02, 2.0278630000e-02, -2.5872342146e+01, 4.1010836096e-01, 0.0000000000e+00, 1.4539000000e-02, 0.0000000000e+00
8.0841000000e+09, 4.7438860000e-02, 1.9463950000e-02, -2.5801613802e+01, 3.8935016560e-01, 0.0000000000e+00, 1.4539000000e-02, 0.0000000000e+00
8.0841500000e+09, 4.7650230000e-02, 1.8559210000e-02, -2.5825301843e+01, 3.7141190471e-01, 0.0000000000e+00, 1.4539000000e-02, 0.0000000000e+00
8.0842000000e+09, 4.7974800000e-02, 1.8122100000e-02, -2.5800455819e+01, 3.6117250222e-01, 0.0000000000e+00, 1.4539000000e-02, 0.0000000000e+00
8.0842500000e+09, 4.8404370000e-02, 1.6944460000e-02, -2.5800281086e+01, 3.3672875338e-01, 0.0000000000e+00, 1.4539000000e-02, 0.0000000000e+00
8.0843000000e+09, 4.8456380000e-02, 1.5696120000e-02, -2.5859649148e+01, 3.1325718280e-01, 0.0000000000e+00, 1.4539000000e-02, 0.0000000000e+00
8.0843500000e+09, 4.8698550000e-02, 1.4709960000e-02, -2.5870471904e+01, 2.9334705946e-01, 0.0000000000e+00, 1.4539000000e-02, 0.0000000000e+00
8.0844000000e+09, 4.9124650000e-02, 1.4314120000e-02, -2.5820095777e+01, 2.8353326455e-01, 0.0000000000e+00, 1.4539000000e-02, 0.0000000000e+00
8.0844500000e+09, 4.9650770000e-02, 1.3425990000e-02, -2.5774994296e+01, 2.6409253459e-01, 0.0000000000e+00, 1.4539000000e-02, 0.0000000000e+00
8.0845000000e+09, 4.9487790000e-02, 1.1967910000e-02, -2.5863193927e+01, 2.3727989584e-01, 0.0000000000e+00, 1.4539000000e-02, 0.0000000000e+00
8.0845500000e+09, 4.9549010000e-02, 1.0902720000e-02, -2.5893958957e+01, 2.1658760794e-01, 0.0000000000e+00, 1.4539000000e-02, 0.0000000000e+00
8.0846000000e+09, 5.0171280000e-02, 9.3755000000e-03, -2.5841827135e+01, 1.8473914022e-01, 0.0000000000e+00, 1.4539000000e-02, 0.0000000000e+00
8.0846500000e+09, 5.0257700000e-02, 9.2588750000e-03, -2.5830994638e+01, 1.8218519993e-01, 0.0000000000e+00, 1.4539000000e-02, 0.0000000000e+00
8.0847000000e+09, 5.0462180000e-02, 8.2540020000e-03, -2.5826013609e+01, 1.6213233186e-01, 0.0000000000e+00, 1.4539000000e-02, 0.0000000000e+00
8.0847500000e+09, 5.0746090000e-02, 7.2517710000e-03, -2.5804153218e+01, 1.4194204261e-01, 0.0000000000e+00, 1.4539000000e-02, 0.0000000000e+00
8.0848000000e+09, 5.0393910000e-02, 6.3732640000e-03, -2.5883525777e+01, 1.2580106560e-01, 0.0000000000e+00, 1.4539000000e-02, 0.0000000000e+00
8.0848500000e+09, 5.0661980000e-02, 5.2795390000e-03, -2.5859446930e+01, 1.0383626414e-01, 0.0000000000e+00, 1.4539000000e-02, 0.0000000000e+00
8.0849000000e+09, 5.0351700000e-02, 4.1396440000e-03, -2.5930461008e+01, 8.2030094284e-02, 0.0000000000e+00, 1.4539000000e-02, 0.0000000000e+00
8.0849500000e+09, 5.0928430000e-02, 2.9839810000e-03, -2.5845910519e+01, 5.8524744729e-02, 0.0000000000e+00, 1.4539000000e-02, 0.0000000000e+00
8.0850000000e+09, 5.0671790000e-02, 2.0282120000e-03, -2.5897722739e+01, 4.0005097427e-02, 0.0000000000e+00, 1.4539000000e-02, 0.0000000000e+00
8.0850500000e+09, 5.0618130000e-02, 1.1482440000e-03, -2.5911643828e+01, 2.2680551511e-02, 0.0000000000e+00, 1.4539000000e-02, 0.0000000000e+00
8.0851000000e+09, 5.0614460000e-02, 1.7916500000e-04, -2.5914453427e+01, 3.5397839211e-03, 0.0000000000e+00, 1.4539000000e-02, 0.0000000000e+00
8.0851500000e+09, 5.0596080000e-02, -4.9260980000e-04, -2.5917250931e+01, -9.7358181840e-03, 0.0000000000e+00, 1.4539000000e-02, 0.0000000000e+00
8.0852000000e+09, 5.0398110000e-02, -2.2245210000e-03, -2.5943262091e+01, -4.4110345525e-02, 0.0000000000e+00, 1.4539000000e-02, 0.0000000000e+00
8.0852500000e+09, 5.0948810000e-02, -2.7606190000e-03, -2.5844587229e+01, -5.4131236687e-02, 0.0000000000e+00, 1.4539000000e-02, 0.0000000000e+00
8.0853000000e+09, 5.0532830000e-02, -3.9199120000e-03, -2.5902472870e+01, -7.7416558088e-02, 0.0000000000e+00, 1.4539000000e-02, 0.0000000000e+00
8.0853500000e+09, 5.0424230000e-02, -5.0323390000e-03, -2.5904172576e+01, -9.9470645383e-02, 0.0000000000e+00, 1.4539000000e-02, 0.0000000000e+00
8.0854000000e+09, 5.0442720000e-02, -5.9711060000e-03, -2.5883597400e+01, -1.1782569053e-01, 0.0000000000e+00, 1.4539000000e-02, 0.0000000000e+00
8.0854500000e+09, 5.0031380000e-02, -6.8171730000e-03, -2.5935257637e+01, -1.3542395013e-01, 0.0000000000e+00, 1.4539000000e-02, 0.0000000000e+00
8.0855000000e+09, 5.0185910000e-02, -7.9805100000e-03, -2.5879909330e+01, -1.5769854018e-01, 0.0000000000e+00, 1.4539000000e-02, 0.0000000000e+00
8.0855500000e+09, 5.0240480000e-02, -8.3899780000e-03, -2.5859467332e+01, -1.6546945681e-01, 0.0000000000e+00, 1.4539000000e-02, 0.0000000000e+00
8.0856000000e+09, 4.9557520000e-02, -9.6661020000e-03, -2.5935652013e+01, -1.9262965165e-01, 0.0000000000e+00, 1.4539000000e-02, 0.0000000000e+00
8.0856500000e+09, 4.9751360000e-02, -1.0590230000e-02, -2.5871446856e+01, -2.0973280410e-01, 0.0000000000e+00, 1.4539000000e-02, 0.0000000000e+00
8.0857000000e+09, 4.9417520000e-02, -1.2131030000e-02, -2.5868254831e+01, -2.4072037012e-01, 0.0000000000e+00, 1.4539000000e-02, 0.0000000000e+00
8.0857500000e+09, 4.9104210000e-02, -1.2640260000e-02, -2.5898979888e+01, -2.5194712494e-01, 0.0000000000e+00, 1.4539000000e-02, 0.0000000000e+00
8.0858000000e+09, 4.8277900000e-02, -1.3407340000e-02, -2.6002376302e+01, -2.7088554947e-01, 0.0000000000e+00, 1.4539000000e-02, 0.0000000000e+00
8.0858500000e+09, 4.8542070000e-02, -1.4454650000e-02, -2.5908670081e+01, -2.8941492640e-01, 0.0000000000e+00, 1.4539000000e-02, 0.0000000000e+00
8.0859000000e+09, 4.7871560000e-02, -1.6145460000e-02, -2.5930577068e+01, -3.2528596471e-01, 0.0000000000e+00, 1.4539000000e-02, 0.0000000000e+00
8.0859500000e+09, 4.8004200000e-02, -1.6516870000e-02, -2.5888501564e+01, -3.3138344092e-01, 0.0000000000e+00, 1.4539000000e-02, 0.0000000000e+00
8.0860000000e+09, 4.7718630000e-02, -1.7116140000e-02, -2.5900618244e+01, -3.4439436565e-01, 0.0000000000e+00, 1.4539000000e-02, 0.0000000000e+00
8.0860500000e+09, 4.6974260000e-02, -1.8032860000e-02, -2.5965765839e+01, -3.6654012786e-01, 0.0000000000e+00, 1.4539000000e-02, 0.0000000000e+00
8.0861000000e+09, 4.6945230000e-02, -1.9289280000e-02, -2.5890657840e+01, -3.8985808382e-01, 0.0000000000e+00, 1.4539000000e-02, 0.0000000000e+00
8.0861500000e+09, 4.6397080000e-02, -2.0359520000e-02, -2.5905404503e+01, -4.1350976658e-01, 0.0000000000e+00, 1.4539000000e-02, 0.0000000000e+00
8.0862000000e+09, 4.6258240000e-02, -2.1129580000e-02, -2.5873238006e+01, -4.2847322114e-01, 0.0000000000e+00, 1.4539000000e-02, 0.0000000000e+00
8.0862500000e+09, 4.5469240000e-02, -2.2252750000e-02, -2.5913129638e+01, -4.5513355086e-01, 0.0000000000e+00, 1.4539000000e-02, 0.0000000000e+00
8.0863000000e+09, 4.5308300000e-02, -2.2628020000e-02, -2.5909347542e+01, -4.6318613016e-01, 0.0000000000e+00, 1.4539000000e-02, 0.0000000000e+00
8.0863500000e+09, 4.4850190000e-02, -2.4157810000e-02, -2.5858393209e+01, -4.9407458576e-01, 0.0000000000e+00, 1.4539000000e-02, 0.0000000000e+00
8.0864000000e+09, 4.4107910000e-02, -2.4610690000e-02, -2.5932565514e+01, -5.0893814592e-01, 0.0000000000e+00, 1.4539000000e-02, 0.0000000000e+00
8.0864500000e+09, 4.3642540000e-02, -2.4933570000e-02, -2.5975057587e+01, -5.1905932447e-01, 0.0000000000e+00, 1.4539000000e-02, 0.0000000000e+00
8.0865000000e+09, 4.3519960000e-02, -2.5896580000e-02, -2.5909770135e+01, -5.3677231648e-01, 0.0000000000e+00, 1.4539000000e-02, 0.0000000000e+00
8.0865500000e+09, 4.2526270000e-02, -2.6859910000e-02, -2.5968900522e+01, -5.6333665398e-01, 0.0000000000e+00, 1.4539000000e-02, 0.0000000000e+00
8.0866000000e+09, 4.2446780000e-02, -2.8132540000e-02, -2.5861691890e+01, -5.8530149160e-01, 0.0000000000e+00, 1.4539000000e-02, 0.0000000000e+00
8.0866500000e+09, 4.1461770000e-02, -2.8729390000e-02, -2.5944050170e+01, -6.0595358194e-01, 0.0000000000e+00, 1.4539000000e-02, 0.0000000000e+00
8.0867000000e+09, 4.1237730000e-02, -2.9376990000e-02, -2.5911568663e+01, -6.1898735559e-01, 0.0000000000e+00, 1.4539000000e-02, 0.0000000000e+00
8.0867500000e+09, 4.0516360000e-02, -3.0289940000e-02, -2.5919202285e+01, -6.4196190191e-01, 0.0000000000e+00, 1.4539000000e-02, 0.0000000000e+00
8.0868000000e+09, 4.0026360000e-02, -3.0945870000e-02, -2.5918013684e+01, -6.5814525573e-01, 0.0000000000e+00, 1.4539000000e-02, 0.0000000000e+00
8.0868500000e+09, 3.9339730000e-02, -3.1868620000e-02, -2.5912135583e+01, -6.8086160751e-01, 0.0000000000e+00, 1.4539000000e-02, 0.0000000000e+00
8.0869000000e+09, 3.8445300000e-02, -3.2955220000e-02, -2.5910671386e+01, -7.0865784555e-01, 0.0000000000e+00, 1.4539000000e-02, 0.0000000000e+00
8.0869500000e+09, 3.7904520000e-02, -3.3220330000e-02, -2.5951076470e+01, -7.1963443640e-01, 0.0000000000e+00, 1.4539000000e-02, 0.0000000000e+00
8.0870000000e+09, 3.6826580000e-02, -3.4220310000e-02, -2.5973558141e+01, -7.4873080391e-01, 0.0000000000e+00, 1.4539000000e-02, 0.0000000000e+00
8.0870500000e+09, 3.6874180000e-02, -3.4783440000e-02, -2.5901356850e+01, -7.5622963909e-01, 0.0000000000e+00, 1.4539000000e-02, 0.0000000000e+00
8.0871000000e+09, 3.5615760000e-02, -3.5760660000e-02, -2.5939186830e+01, -7.8742824281e-01, 0.0000000000e+00, 1.4539000000e-02, 0.0000000000e+00
8.0871500000e+09, 3.5069460000e-02, -3.5806660000e-02, -2.5999831441e+01, -7.9579903490e-01, 0.0000000000e+00, 1.4539000000e-02, 0.0000000000e+00
8.0872000000e+09, 3.4287640000e-02, -3.6960750000e-02, -2.5948689965e+01, -8.2289875566e-01, 0.0000000000e+00, 1.4539000000e-02, 0.0000000000e+00
8.0872500000e+09, 3.3609530000e-02, -3.7907710000e-02, -2.5906426588e+01, -8.4542587389e-01, 0.0000000000e+00, 1.4539000000e-02, 0.0000000000e+00
8.0873000000e+09, 3.3245120000e-02, -3.8417810000e-02, -2.5881840425e+01, -8.5745403126e-01, 0.0000000000e+00, 1.4539000000e-02, 0.0000000000e+00
8.0873500000e+09, 3.2236850000e-02, -3.8865890000e-02, -2.5934986688e+01, -8.7836128438e-01, 0.0000000000e+00, 1.4539000000e-02, 0.0000000000e+00
8.0874000000e+09, 3.0871580000e-02, -3.9331040000e-02, -2.6020625695e+01, -9.0532058429e-01, 0.0000000000e+00, 1.4539000000e-02, 0.0000000000e+00
8.0874500000e+09, 3.0600900000e-02, -4.0101510000e-02, -2.5943896620e+01, -9.1897266131e-01, 0.0000000000e+00, 1.4539000000e-02, 0.0000000000e+00
8.0875000000e+09, 2.9549040000e-02, -4.1218390000e-02, -2.5897119076e+01, -9.4882469056e-01, 0.0000000000e+00, 1.4539000000e-02, 0.0000000000e+00
8.0875500000e+09, 2.8911070000e-02, -4.1102810000e-02, -2.5976885762e+01, -9.5780264976e-01, 0.0000000000e+00, 1.4539000000e-02, 0.0000000000e+00
8.0876000000e+09, 2.7792630000e-02, -4.1559520000e-02, -2.6021253167e+01, -9.8135777330e-01, 0.0000000000e+00, 1.4539000000e-02, 0.0000000000e+00
8.0876500000e+09, 2.7307510000e-02, -4.1962960000e-02, -2.6009166775e+01, -9.9389214131e-01, 0.0000000000e+00, 1.4539000000e-02, 0.0000000000e+00
8.0877000000e+09, 2.6399490000e-02, -4.2915660000e-02, -2.5953908502e+01, -1.0193128565e+00, 0.0000000000e+00, 1.4539000000e-02, 0.0000000000e+00
8.0877500000e+09, 2.5698640000e-02, -4.3301630000e-02, -2.5959447339e+01, -1.0351849313e+00, 0.0000000000e+00, 1.4539000000e-02, 0.0000000000e+00
8.0878000000e+09, 2.4975560000e-02, -4.3274080000e-02, -2.6026815470e+01, -1.0473490709e+00, 0.0000000000e+00, 1.4539000000e-02, 0.0000000000e+00
8.0878500000e+09, 2.4076440000e-02, -4.4494510000e-02, -2.5918556607e+01, -1.0748037902e+00, 0.0000000000e+00, 1.4539000000e-02, 0.0000000000e+00
8.0879000000e+09, 2.2955050000e-02, -4.4674350000e-02, -2.5981289065e+01, -1.0961455222e+00, 0.0000000000e+00, 1.4539000000e-02, 0.0000000000e+00
8.0879500000e+09, 2.1869570000e-02, -4.5411550000e-02, -2.5950830290e+01, -1.1219880790e+00, 0.0000000000e+00, 1.4539000000e-02, 0.0000000000e+00
8.0880000000e+09, 2.0730520000e-02, -4.5747790000e-02, -2.5981490693e+01, -1.1453275993e+00, 0.0000000000e+00, 1.4539000000e-02, 0.0000000000e+00
8.0880500000e+09, 2.0337430000e-02, -4.5925810000e-02, -2.5981187127e+01, -1.1539190638e+00, 0.0000000000e+00, 1.4539000000e-02, 0.0000000000e+00
8.0881000000e+09, 1.9952720000e-02, -4.6316420000e-02, -2.5945986867e+01, -1.1640304724e+00, 0.0000000000e+00, 1.4539000000e-02, 0.0000000000e+00
8.0881500000e+09, 1.8329330000e-02, -4.7040190000e-02, -2.5936738154e+01, -1.1992418679e+00, 0.0000000000e+00, 1.4539000000e-02, 0.0000000000e+00
8.0882000000e+09, 1.7404880000e-02, -4.6990830000e-02, -2.6001415347e+01, -1.2160744147e+00, 0.0000000000e+00, 1.4539000000e-02, 0.0000000000e+00
8.0882500000e+09, 1.6678360000e-02, -4.7004270000e-02, -2.6042248482e+01, -1.2298282291e+00, 0.0000000000e+00, 1.4539000000e-02, 0.0000000000e+00
8.0883000000e+09, 1.5396930000e-02, -4.7774540000e-02, -2.5986904421e+01, -1.2590236703e+00, 0.0000000000e+00, 1.4539000000e-02, 0.0000000000e+00
8.0883500000e+09, 1.4637540000e-02, -4.7909900000e-02, -2.6003927090e+01, -1.2742809880e+00, 0.0000000000e+00, 1.4539000000e-02, 0.0000000000e+00
8.0884000000e+09, 1.3891320000e-02, -4.8054540000e-02, -2.6016766636e+01, -1.2893932444e+00, 0.0000000000e+00, 1.4539000000e-02, 0.0000000000e+00
8.0884500000e+09, 1.2922330000e-02, -4.8715110000e-02, -2.5951408839e+01, -1.3115046054e+00, 0.0000000000e+00, 1.4539000000e-02, 0.0000000000e+00
8.0885000000e+09, 1.1705380000e-02, -4.8646030000e-02, -2.6014607041e+01, -1.3346618483e+00, 0.0000000000e+00, 1.4539000000e-02, 0.0000000000e+00
8.0885500000e+09, 1.0864830000e-02, -4.9025700000e-02, -2.5983300404e+01, -1.3527061122e+00, 0.0000000000e+00, 1.4539000000e-02, 0.0000000000e+00
8.0886000000e+09, 1.0249370000e-02, -4.9135390000e-02, -2.5987138840e+01, -1.3651506890e+00, 0.0000000000e+00, 1.4539000000e-02, 0.0000000000e+00
8.0886500000e+09, 8.8640940000e-03, -4.9173900000e-02, -2.6026432749e+01, -1.3924514260e+00, 0.0000000000e+00, 1.4539000000e-02, 0.0000000000e+00
8.0887000000e+09, 8.0662800000e-03, -4.9234460000e-02, -2.6039581918e+01, -1.4084049878e+00, 0.0000000000e+00, 1.4539000000e-02, 0.0000000000e+00
8.0887500000e+09, 7.2434060000e-03, -4.9567240000e-02, -2.6004338772e+01, -1.4256904837e+00, 0.0000000000e+00, 1.4539000000e-02, 0.0000000000e+00
8.0888000000e+09, 5.6627650000e-03, -4.9404580000e-02, -2.6067970576e+01, -1.4566741157e+00, 0.0000000000e+00, 1.4539000000e-02, 0.0000000000e+00
8.0888500000e+09, 5.2483090000e-03, -4.9848290000e-02, -2.5999117748e+01, -1.4658971547e+00, 0.0000000000e+00, 1.4539000000e-02, 0.0000000000e+00
8.0889000000e+09, 4.0828300000e-03, -4.9395240000e-02, -2.6096727592e+01, -1.4883274519e+00, 0.0000000000e+00, 1.4539000000e-02, 0.0000000000e+00
8.0889500000e+09, 3.3371900000e-03, -5.0044910000e-02, -2.5993532600e+01, -1.5042110015e+00, 0.0000000000e+00, 1.4539000000e-02, 0.0000000000e+00
8.0890000000e+09, 1.6784370000e-03, -4.9723520000e-02, -2.6063817042e+01, -1.5370537448e+00, 0.0000000000e+00, 1.4539000000e-02, 0.0000000000e+00
8.0890500000e+09, 1.5960310000e-03, -4.9896320000e-02, -2.6034188397e+01, -1.5388202813e+00, 0.0000000000e+00, 1.4539000000e-02, 0.0000000000e+00
8.0891000000e+09, -9.4773140000e-05, -4.9687640000e-02, -2.6075016807e+01, -1.5727037031e+00, 0.0000000000e+00, 1.4539000000e-02, 0.0000000000e+00
8.0891500000e+09, -4.2024090000e-04, -4.9802570000e-02, -2.6054655693e+01, -1.5792342634e+00, 0.0000000000e+00, 1.4539000000e-02, 0.0000000000e+00
8.0892000000e+09, -2.0168280000e-03, -5.0053770000e-02, -2.6004218881e+01, -1.6110677707e+00, 0.0000000000e+00, 1.4539000000e-02, 0.0000000000e+00
8.0892500000e+09, -2.7298180000e-03, -4.9965040000e-02, -2.6013731112e+01, -1.6253766242e+00, 0.0000000000e+00, 1.4539000000e-02, 0.0000000000e+00
8.0893000000e+09, -3.5839850000e-03, -4.9548830000e-02, -2.6076668983e+01, -1.6430029583e+00, 0.0000000000e+00, 1.4539000000e-02, 0.0000000000e+00
8.0893500000e+09, -4.4114070000e-03, -4.9295560000e-02, -2.6109202961e+01, -1.6600475159e+00, 0.0000000000e+00, 1.4539000000e-02, 0.0000000000e+00
8.0894000000e+09, -5.7029750000e-03, -4.9570620000e-02, -2.6038407195e+01, -1.6853402153e+00, 0.0000000000e+00, 1.4539000000e-02, 0.0000000000e+00
8.0894500000e+09, -6.6449650000e-03, -4.8894050000e-02, -2.6135396170e+01, -1.7058741337e+00, 0.0000000000e+00, 1.4539000000e-02, 0.0000000000e+00
8.0895000000e+09, -7.0114080000e-03, -4.9619920000e-02, -2.6001020427e+01, -1.7111692886e+00, 0.0000000000e+00, 1.4539000000e-02, 0.0000000000e+00
8.0895500000e+09, -8.4530010000e-03, -4.9105770000e-02, -2.6050530379e+01, -1.7412643267e+00, 0.0000000000e+00, 1.4539000000e-02, 0.0000000000e+00
8.0896000000e+09, -9.4777280000e-03, -4.8911550000e-02, -2.6051689936e+01, -1.7621970871e+00, 0.0000000000e+00, 1.4539000000e-02, 0.0000000000e+00
8.0896500000e+09, -1.0354860000e-02, -4.8675990000e-02, -2.6061484929e+01, -1.7804020994e+00, 0.0000000000e+00, 1.4539000000e-02, 0.0000000000e+00
8.0897000000e+09, -1.1282370000e-02, -4.8526190000e-02, -2.6051837019e+01, -1.7992384115e+00, 0.0000000000e+00, 1.4539000000e-02, 0.0000000000e+00
8.0897500000e+09, -1.2206210000e-02, -4.8546790000e-02, -2.6010566486e+01, -1.8171221739e+00, 0.0000000000e+00, 1.4539000000e-02, 0.0000000000e+00
8.0898000000e+09, -1.2841090000e-02, -4.7925660000e-02, -2.6087538519e+01, -1.8325849703e+00, 0.0000000000e+00, 1.4539000000e-02, 0.0000000000e+00
8.0898500000e+09, -1.3678870000e-02, -4.7766450000e-02, -2.6075237261e+01, -1.8497019468e+00, 0.0000000000e+00, 1.4539000000e-02, 0.0000000000e+00
8.0899000000e+09, -1.5133160000e-02, -4.6906040000e-02, -2.6145386727e+01, -1.8828805308e+00, 0.0000000000e+00, 1.4539000000e-02, 0.0000000000e+00
8.0899500000e+09, -1.5835720000e-02, -4.7343390000e-02, -2.6034229279e+01, -1.8935842803e+00, 0.0000000000e+00, 1.4539000000e-02, 0.0000000000e+00
8.0900000000e+09, -1.6767970000e-02, -4.6748070000e-02, -2.6079106281e+01, -1.9151899161e+00, 0.0000000000e+00, 1.4539000000e-02, 0.0000000000e+00
8.0900500000e+09, -1.7502120000e-02, -4.6677940000e-02, -2.6046466436e+01, -1.9295274131e+00, 0.0000000000e+00, 1.4539000000e-02, 0.0000000000e+00
8.0901000000e+09, -1.8617430000e-02, -4.5936120000e-02, -2.6096415419e+01, -1.9558543384e+00, 0.0000000000e+00, 1.4539000000e-02, 0.0000000000e+00
8.0901500000e+09, -1.9994200000e-02, -4.5973240000e-02, -2.5997544886e+01, -1.9810304017e+00, 0.0000000000e+00, 1.4539000000e-02, 0.0000000000e+00
8.0902000000e+09, -2.0369200000e-02, -4.4794970000e-02, -2.6159166662e+01, -1.9975690459e+00, 0.0000000000e+00, 1.4539000000e-02, 0.0000000000e+00
8.0902500000e+09, -2.1057070000e-02, -4.4986540000e-02, -2.6077975838e+01, -2.0085792545e+00, 0.0000000000e+00, 1.4539000000e-02, 0.0000000000e+00
8.0903000000e+09, -2.2700690000e-02, -4.4422280000e-02, -2.6040343825e+01, -2.0432213141e+00, 0.0000000000e+00, 1.4539000000e-02, 0.0000000000e+00
8.0903500000e+09, -2.3189590000e-02, -4.4072250000e-02, -2.6055272521e+01, -2.0551617584e+00, 0.0000000000e+00, 1.4539000000e-02, 0.0000000000e+00
8.0904000000e+09, -2.4605560000e-02, -4.3450260000e-02, -2.6032152425e+01, -2.0860621310e+00, 0.0000000000e+00, 1.4539000000e-02, 0.0000000000e+00
8.0904500000e+09, -2.4353060000e-02, -4.2681120000e-02, -2.6171279087e+01, -2.0893036912e+00, 0.0000000000e+00, 1.4539000000e-02, 0.0000000000e+00
8.0905000000e+09, -2.5981760000e-02, -4.2323400000e-02, -2.6079502160e+01, -2.1213639000e+00, 0.0000000000e+00, 1.4539000000e-02, 0.0000000000e+00
8.0905500000e+09, -2.6499920000e-02, -4.1418070000e-02, -2.6165971795e+01, -2.1399785645e+00, 0.0000000000e+00, 1.4539000000e-02, 0.0000000000e+00
8.0906000000e+09, -2.7087600000e-02, -4.1206470000e-02, -2.6140879971e+01, -2.1523300956e+00, 0.0000000000e+00, 1.4539000000e-02, 0.0000000000e+00
8.0906500000e+09, -2.8119200000e-02, -4.1141610000e-02, -2.6049670546e+01, -2.1703443525e+00, 0.0000000000e+00, 1.4539000000e-02, 0.0000000000e+00
8.0907000000e+09, -2.8765050000e-02, -4.0216230000e-02, -2.6117614138e+01, -2.1916904752e+00, 0.0000000000e+00, 1.4539000000e-02, 0.0000000000e+00
